
T3D78 000:255 SEGGER J-Link V4.54a Log File (0001ms, 0255ms total)
T3D78 000:255 DLL Compiled: Sep 17 2012 15:58:45 (0001ms, 0255ms total)
T3D78 000:255 Logging started @ 2012-12-13 13:35 (0001ms, 0255ms total)
T3D78 000:256 JLINK_SetWarnOutHandler(...) (0000ms, 0255ms total)
T3D78 000:256 JLINK_OpenEx(...)
Firmware: J-Link ARM V8 compiled Aug  1 2012 13:40:47
Hardware: V8.00
S/N: 87878787
Feature(s): RDI, FlashBP, FlashDL, JFlash, GDBFull  returns O.K. (0021ms, 0276ms total)
T3D78 000:278 JLINK_SetErrorOutHandler(...) (0000ms, 0276ms total)
T3D78 000:278 JLINK_ExecCommand("ProjectFile = "E:\ArmWork\RTT_GPS_STUSB\bsp\stm32f40x_car\JLinkSettings.ini"", ...)  returns 0x00 (0001ms, 0277ms total)
T3D78 000:284 JLINK_ExecCommand("Device = STM32F407VG", ...)
                JLINK_ExecCommand("map ram 0x20000000 - 0x2001FFFF", ...)  returns 0x00 (0000ms, 0000ms total)
                JLINK_AddMirrorAreaEx(Addr = 0x00000000, Size = 0x00000000) (0001ms, 0001ms total)
              Device "STM32F407VG" selected (1024 KB flash, 128 KB RAM).  returns 0x00 (0008ms, 0285ms total)
T3D78 000:292 JLINK_ExecCommand("DisableConnectionTimeout", ...)  returns 0x00 (0000ms, 0285ms total)
T3D78 000:292 JLINK_TIF_Select(JLINKARM_TIF_SWD)  returns 0x00 (0003ms, 0288ms total)
T3D78 000:295 JLINK_SetSpeed(2000) (0000ms, 0288ms total)
T3D78 000:295 JLINK_GetHardwareVersion()  returns 0x13880 (0000ms, 0288ms total)
T3D78 000:295 JLINK_GetDLLVersion()  returns 45401 (0000ms, 0288ms total)
T3D78 000:295 JLINK_GetFirmwareString(...) (0000ms, 0288ms total)
T3D78 000:309 JLINK_GetDLLVersion()  returns 45401 (0000ms, 0288ms total)
T3D78 000:309 JLINK_GetCompileDateTime() (0000ms, 0288ms total)
T3D78 000:313 JLINK_GetFirmwareString(...) (0000ms, 0288ms total)
T3D78 000:330 JLINK_GetHardwareVersion()  returns 0x13880 (0000ms, 0288ms total)
T3D78 000:372 JLINK_GetId() >0x108 TIF>Found SWD-DP with ID 0x2BA01477 >0x0D TIF> >0x28 TIF> >0x0D TIF> >0x28 TIF> >0x0D TIF> >0x21 TIF> >0x0D TIF> >0x28 TIF> >0x0D TIF> >0x28 TIF> >0x0D TIF> >0x28 TIF> >0x0D TIF> >0x21 TIF> >0x0D TIF> >0x21 TIF> >0x0D TIF> >0x28 TIF> >0x0D TIF> >0x21 TIF> >0x0D TIF> >0x21 TIF> >0x0D TIF> >0x28 TIF> >0x0D TIF> >0x21 TIF> >0x0D TIF> >0x21 TIF> >0x108 TIF>Found SWD-DP with ID 0x2BA01477 >0x0D TIF> >0x21 TIF> >0x0D TIF> >0x28 TIF> >0x0D TIF> >0x28 TIF> >0x0D TIF> >0x21 TIF>
 >0x0D TIF> >0x21 TIF> >0x0D TIF> >0x28 TIF> >0x0D TIF> >0x21 TIF> >0x0D TIF> >0x21 TIF> >0x0D TIF> >0x21 TIF> >0x0D TIF> >0x21 TIF> >0x0D TIF> >0x21 TIF> >0x0D TIF> >0x28 TIF> >0x0D TIF> >0x28 TIF> >0x0D TIF> >0x21 TIF> >0x0D TIF> >0x21 TIF> >0x0D TIF> >0x28 TIF> >0x0D TIF> >0x21 TIF> >0x0D TIF> >0x21 TIF> >0x0D TIF> >0x28 TIF> >0x0D TIF> >0x28 TIF> >0x0D TIF> >0x28 TIF> >0x0D TIF> >0x21 TIF> >0x0D TIF> >0x21 TIF> >0x0D TIF> >0x28 TIF> >0x0D TIF> >0x28 TIF> >0x0D TIF> >0x28 TIF> >0x0D TIF> >0x21 TIF>
 >0x0D TIF> >0x21 TIF> >0x0D TIF> >0x21 TIF>TPIU fitted.ETM fitted. >0x0D TIF> >0x28 TIF> >0x0D TIF> >0x21 TIF> >0x0D TIF> >0x21 TIF> >0x0D TIF> >0x28 TIF> >0x0D TIF> >0x21 TIF> >0x0D TIF> >0x21 TIF>FPUnit: 6 code (BP) slots and 2 literal slots >0x0D TIF> >0x28 TIF> >0x0D TIF> >0x21 TIF> >0x0D TIF> >0x21 TIF> >0x0D TIF> >0x28 TIF> >0x0D TIF> >0x21 TIF> >0x0D TIF> >0x21 TIF> >0x0D TIF> >0x28 TIF> >0x0D TIF> >0x21 TIF> >0x0D TIF> >0x21 TIF> >0x0D TIF> >0x28 TIF> >0x0D TIF> >0x21 TIF> >0x0D TIF> >0x21 TIF>
Found Cortex-M4 r0p1, Little endian. >0x0D TIF> >0x21 TIF>  returns 0x2BA01477 (0100ms, 0388ms total)
T3D78 000:472 JLINK_GetDeviceFamily()  returns 14 (0000ms, 0388ms total)
T3D78 000:476 JLINK_ReadMem (0xE00FFFF0, 0x0010 Bytes, ...) -- CPU is running -- CPU_ReadMem(16 bytes @ 0xE00FFFF0) -- Data:  0D 00 00 00 10 00 00 00 05 00 00 00 B1 00 00 00  returns 0x00 (0002ms, 0390ms total)
T3D78 000:478 JLINK_ReadMem (0xE00FFFD0, 0x0020 Bytes, ...) -- CPU is running -- CPU_ReadMem(32 bytes @ 0xE00FFFD0) -- Data:  00 00 00 00 00 00 00 00 00 00 00 00 00 00 00 00 ...  returns 0x00 (0001ms, 0391ms total)
T3D78 000:479 JLINK_ReadMem (0xE00FF000, 0x0018 Bytes, ...) -- CPU is running -- CPU_ReadMem(24 bytes @ 0xE00FF000) -- Data:  03 F0 F0 FF 03 20 F0 FF 03 30 F0 FF 03 10 F0 FF ...  returns 0x00 (0002ms, 0393ms total)
T3D78 000:481 JLINK_ReadMemU32(0xE000ED00, 0x0001 Items, ...) -- CPU is running -- CPU_ReadMem(4 bytes @ 0xE000ED00) -- Data:  41 C2 0F 41  returns 0x01 (0001ms, 0394ms total)
T3D78 000:482 JLINK_ReadMemU32(0xE000EF40, 0x0001 Items, ...) -- CPU is running -- CPU_ReadMem(4 bytes @ 0xE000EF40) -- Data:  21 00 11 10  returns 0x01 (0001ms, 0395ms total)
T3D78 000:483 JLINK_ReadMemU32(0xE000EF44, 0x0001 Items, ...) -- CPU is running -- CPU_ReadMem(4 bytes @ 0xE000EF44) -- Data:  11 00 00 11  returns 0x01 (0002ms, 0397ms total)
T3D78 000:485 JLINK_SetResetType(JLINKARM_RESET_TYPE_NORMAL)  returns JLINKARM_RESET_TYPE_NORMAL (0000ms, 0397ms total)
T3D78 000:485 JLINK_Reset() -- CPU is running -- CPU_WriteMem(4 bytes @ 0xE000EDF0) -- CPU is running -- CPU_WriteMem(4 bytes @ 0xE000EDFC) >0x35 TIF> -- CPU is running -- CPU_WriteMem(4 bytes @ 0xE000ED0C) -- CPU is running -- CPU_ReadMem(4 bytes @ 0xE000EDF0) -- CPU is running -- CPU_ReadMem(4 bytes @ 0xE000EDF0) -- CPU is running -- CPU_WriteMem(4 bytes @ 0xE000EDF0) -- CPU is running -- CPU_WriteMem(4 bytes @ 0xE000EDFC) -- CPU is running -- CPU_ReadMem(4 bytes @ 0xE000EDF0)
 -- CPU_WriteMem(4 bytes @ 0xE0002000) (0021ms, 0418ms total)
T3D78 000:506 JLINK_Halt()  returns 0x00 (0000ms, 0418ms total)
T3D78 000:506 JLINK_IsHalted()  returns TRUE (0000ms, 0418ms total)
T3D78 000:506 JLINK_ReadMemU32(0xE000EDF0, 0x0001 Items, ...) -- CPU_ReadMem(4 bytes @ 0xE000EDF0) -- Data:  03 00 03 00  returns 0x01 (0001ms, 0419ms total)
T3D78 000:507 JLINK_WriteU32(0xE000EDF0, 0xA05F0003) -- CPU_WriteMem(4 bytes @ 0xE000EDF0)  returns 0x00 (0001ms, 0420ms total)
T3D78 000:508 JLINK_WriteU32(0xE000EDFC, 0x01000000) -- CPU_WriteMem(4 bytes @ 0xE000EDFC)  returns 0x00 (0001ms, 0421ms total)
T3D78 000:527 JLINK_GetHWStatus(...)  returns 0x00 (0001ms, 0422ms total)
T3D78 000:538 JLINK_GetNumBPUnits(Type = 0xFFFFFF00)  returns 0x06 (0000ms, 0422ms total)
T3D78 000:538 JLINK_GetNumBPUnits(Type = 0xF0)  returns 0x2000 (0000ms, 0422ms total)
T3D78 000:538 JLINK_GetNumWPUnits()  returns 0x04 (0000ms, 0422ms total)
T3D78 000:545 JLINK_GetSpeed()  returns 0x7D0 (0000ms, 0422ms total)
T3D78 000:549 JLINK_ReadMemU32(0xE000E004, 0x0001 Items, ...) -- CPU_ReadMem(4 bytes @ 0xE000E004) -- Data:  02 00 00 00  returns 0x01 (0001ms, 0423ms total)
T3D78 000:550 JLINK_ReadMemU32(0xE000E004, 0x0001 Items, ...) -- CPU_ReadMem(4 bytes @ 0xE000E004) -- Data:  02 00 00 00  returns 0x01 (0001ms, 0424ms total)
T3D78 000:551 JLINK_WriteMem(0xE0001000, 0x001C Bytes, ...) -- Data:  01 00 00 00 00 00 00 00 00 00 00 00 00 00 00 00 ... -- CPU_WriteMem(28 bytes @ 0xE0001000)  returns 0x1C (0001ms, 0425ms total)
T3D78 000:552 JLINK_ReadMem (0xE0001000, 0x001C Bytes, ...) -- CPU_ReadMem(28 bytes @ 0xE0001000) -- Data:  01 00 00 40 00 00 00 00 00 00 00 00 00 00 00 00 ...  returns 0x00 (0001ms, 0426ms total)
T3D78 000:553 JLINK_Halt()  returns 0x00 (0000ms, 0426ms total)
T3D78 000:553 JLINK_IsHalted()  returns TRUE (0000ms, 0426ms total)
T3D78 000:557 JLINK_WriteMem(0x20000000, 0x0180 Bytes, ...) -- Data:  00 BE 0A E0 0D 78 2D 06 68 40 08 24 40 00 00 D3 ... -- CPU_WriteMem(384 bytes @ 0x20000000)  returns 0x180 (0008ms, 0434ms total)
T3D78 000:565 JLINK_WriteReg(R0, 0x08000000)  returns 0x00 (0000ms, 0434ms total)
T3D78 000:565 JLINK_WriteReg(R1, 0x007A1200)  returns 0x00 (0000ms, 0434ms total)
T3D78 000:565 JLINK_WriteReg(R2, 0x00000001)  returns 0x00 (0000ms, 0434ms total)
T3D78 000:565 JLINK_WriteReg(R3, 0x00000000)  returns 0x00 (0000ms, 0434ms total)
T3D78 000:565 JLINK_WriteReg(R4, 0x00000000)  returns 0x00 (0000ms, 0434ms total)
T3D78 000:565 JLINK_WriteReg(R5, 0x00000000)  returns 0x00 (0000ms, 0434ms total)
T3D78 000:565 JLINK_WriteReg(R6, 0x00000000)  returns 0x00 (0000ms, 0434ms total)
T3D78 000:565 JLINK_WriteReg(R7, 0x00000000)  returns 0x00 (0000ms, 0434ms total)
T3D78 000:565 JLINK_WriteReg(R8, 0x00000000)  returns 0x00 (0000ms, 0434ms total)
T3D78 000:565 JLINK_WriteReg(R9, 0x2000017C)  returns 0x00 (0000ms, 0434ms total)
T3D78 000:565 JLINK_WriteReg(R10, 0x00000000)  returns 0x00 (0000ms, 0434ms total)
T3D78 000:565 JLINK_WriteReg(R11, 0x00000000)  returns 0x00 (0000ms, 0434ms total)
T3D78 000:565 JLINK_WriteReg(R12, 0x00000000)  returns 0x00 (0000ms, 0434ms total)
T3D78 000:565 JLINK_WriteReg(R13, 0x20000800)  returns 0x00 (0000ms, 0434ms total)
T3D78 000:565 JLINK_WriteReg(R14, 0x20000001)  returns 0x00 (0000ms, 0434ms total)
T3D78 000:565 JLINK_WriteReg(R15, 0x20000054)  returns 0x00 (0000ms, 0434ms total)
T3D78 000:565 JLINK_WriteReg(XPSR, 0x01000000)  returns 0x00 (0000ms, 0434ms total)
T3D78 000:565 JLINK_WriteReg(MSP, 0x20000800)  returns 0x00 (0000ms, 0434ms total)
T3D78 000:565 JLINK_WriteReg(PSP, 0x20000800)  returns 0x00 (0000ms, 0434ms total)
T3D78 000:565 JLINK_WriteReg(CFBP, 0x00000000)  returns 0x00 (0000ms, 0434ms total)
T3D78 000:565 JLINK_SetBPEx(Addr = 0x20000000, Type = 0xFFFFFFF2) -- CPU_ReadMem(2 bytes @ 0x20000000)  returns 0x00000001 (0001ms, 0435ms total)
T3D78 000:566 JLINK_Go() -- CPU_WriteMem(2 bytes @ 0x20000000) -- CPU_WriteMem(4 bytes @ 0xE0002008) -- CPU_WriteMem(4 bytes @ 0xE000200C) -- CPU_WriteMem(4 bytes @ 0xE0002010) -- CPU_WriteMem(4 bytes @ 0xE0002014) -- CPU_WriteMem(4 bytes @ 0xE0002018) -- CPU_WriteMem(4 bytes @ 0xE000201C) (0010ms, 0445ms total)
T3D78 000:576 JLINK_IsHalted() -- CPU_ReadMem(2 bytes @ 0x20000000)  returns TRUE (0005ms, 0450ms total)
T3D78 000:581 JLINK_ReadReg(R15)  returns 0x20000000 (0000ms, 0445ms total)
T3D78 000:581 JLINK_ClrBPEx(BPHandle = 0x00000001)  returns 0x00 (0000ms, 0445ms total)
T3D78 000:581 JLINK_ReadReg(R0)  returns 0x00000000 (0000ms, 0445ms total)
T3D78 000:581 JLINK_WriteReg(R0, 0x08000000)  returns 0x00 (0001ms, 0446ms total)
T3D78 000:582 JLINK_WriteReg(R1, 0x00004000)  returns 0x00 (0000ms, 0446ms total)
T3D78 000:582 JLINK_WriteReg(R2, 0x000000FF)  returns 0x00 (0000ms, 0446ms total)
T3D78 000:582 JLINK_WriteReg(R3, 0x00000000)  returns 0x00 (0000ms, 0446ms total)
T3D78 000:582 JLINK_WriteReg(R4, 0x00000000)  returns 0x00 (0000ms, 0446ms total)
T3D78 000:582 JLINK_WriteReg(R5, 0x00000000)  returns 0x00 (0000ms, 0446ms total)
T3D78 000:582 JLINK_WriteReg(R6, 0x00000000)  returns 0x00 (0000ms, 0446ms total)
T3D78 000:582 JLINK_WriteReg(R7, 0x00000000)  returns 0x00 (0000ms, 0446ms total)
T3D78 000:582 JLINK_WriteReg(R8, 0x00000000)  returns 0x00 (0000ms, 0446ms total)
T3D78 000:582 JLINK_WriteReg(R9, 0x2000017C)  returns 0x00 (0000ms, 0446ms total)
T3D78 000:582 JLINK_WriteReg(R10, 0x00000000)  returns 0x00 (0000ms, 0446ms total)
T3D78 000:582 JLINK_WriteReg(R11, 0x00000000)  returns 0x00 (0000ms, 0446ms total)
T3D78 000:582 JLINK_WriteReg(R12, 0x00000000)  returns 0x00 (0000ms, 0446ms total)
T3D78 000:582 JLINK_WriteReg(R13, 0x20000800)  returns 0x00 (0000ms, 0446ms total)
T3D78 000:582 JLINK_WriteReg(R14, 0x20000001)  returns 0x00 (0000ms, 0446ms total)
T3D78 000:582 JLINK_WriteReg(R15, 0x20000020)  returns 0x00 (0000ms, 0446ms total)
T3D78 000:582 JLINK_WriteReg(XPSR, 0x01000000)  returns 0x00 (0000ms, 0446ms total)
T3D78 000:582 JLINK_WriteReg(MSP, 0x20000800)  returns 0x00 (0000ms, 0446ms total)
T3D78 000:582 JLINK_WriteReg(PSP, 0x20000800)  returns 0x00 (0000ms, 0446ms total)
T3D78 000:582 JLINK_WriteReg(CFBP, 0x00000000)  returns 0x00 (0000ms, 0446ms total)
T3D78 000:582 JLINK_SetBPEx(Addr = 0x20000000, Type = 0xFFFFFFF2)  returns 0x00000002 (0000ms, 0446ms total)
T3D78 000:582 JLINK_Go() (0003ms, 0449ms total)
T3D78 000:585 JLINK_IsHalted() -- CPU_ReadMem(2 bytes @ 0x20000000)  returns TRUE (0005ms, 0454ms total)
T3D78 000:590 JLINK_ReadReg(R15)  returns 0x20000000 (0000ms, 0449ms total)
T3D78 000:590 JLINK_ClrBPEx(BPHandle = 0x00000002)  returns 0x00 (0000ms, 0449ms total)
T3D78 000:590 JLINK_ReadReg(R0)  returns 0x00000001 (0000ms, 0449ms total)
T3D78 000:590 JLINK_WriteReg(R0, 0x08000000)  returns 0x00 (0000ms, 0449ms total)
T3D78 000:590 JLINK_WriteReg(R1, 0x00004000)  returns 0x00 (0000ms, 0449ms total)
T3D78 000:590 JLINK_WriteReg(R2, 0x000000FF)  returns 0x00 (0000ms, 0449ms total)
T3D78 000:590 JLINK_WriteReg(R3, 0x00000000)  returns 0x00 (0000ms, 0449ms total)
T3D78 000:590 JLINK_WriteReg(R4, 0x00000000)  returns 0x00 (0000ms, 0449ms total)
T3D78 000:590 JLINK_WriteReg(R5, 0x00000000)  returns 0x00 (0000ms, 0449ms total)
T3D78 000:590 JLINK_WriteReg(R6, 0x00000000)  returns 0x00 (0000ms, 0449ms total)
T3D78 000:590 JLINK_WriteReg(R7, 0x00000000)  returns 0x00 (0000ms, 0449ms total)
T3D78 000:590 JLINK_WriteReg(R8, 0x00000000)  returns 0x00 (0000ms, 0449ms total)
T3D78 000:590 JLINK_WriteReg(R9, 0x2000017C)  returns 0x00 (0000ms, 0449ms total)
T3D78 000:590 JLINK_WriteReg(R10, 0x00000000)  returns 0x00 (0000ms, 0449ms total)
T3D78 000:590 JLINK_WriteReg(R11, 0x00000000)  returns 0x00 (0000ms, 0449ms total)
T3D78 000:590 JLINK_WriteReg(R12, 0x00000000)  returns 0x00 (0000ms, 0449ms total)
T3D78 000:590 JLINK_WriteReg(R13, 0x20000800)  returns 0x00 (0000ms, 0449ms total)
T3D78 000:590 JLINK_WriteReg(R14, 0x20000001)  returns 0x00 (0000ms, 0449ms total)
T3D78 000:590 JLINK_WriteReg(R15, 0x200000BC)  returns 0x00 (0000ms, 0449ms total)
T3D78 000:590 JLINK_WriteReg(XPSR, 0x01000000)  returns 0x00 (0000ms, 0449ms total)
T3D78 000:590 JLINK_WriteReg(MSP, 0x20000800)  returns 0x00 (0001ms, 0450ms total)
T3D78 000:591 JLINK_WriteReg(PSP, 0x20000800)  returns 0x00 (0000ms, 0450ms total)
T3D78 000:591 JLINK_WriteReg(CFBP, 0x00000000)  returns 0x00 (0000ms, 0450ms total)
T3D78 000:591 JLINK_SetBPEx(Addr = 0x20000000, Type = 0xFFFFFFF2)  returns 0x00000003 (0000ms, 0450ms total)
T3D78 000:591 JLINK_Go() (0003ms, 0453ms total)
T3D78 000:594 JLINK_IsHalted()  returns FALSE (0001ms, 0454ms total)
T3D78 000:645 JLINK_IsHalted()  returns FALSE (0001ms, 0454ms total)
T3D78 000:696 JLINK_IsHalted()  returns FALSE (0001ms, 0454ms total)
T3D78 000:747 JLINK_IsHalted()  returns FALSE (0001ms, 0454ms total)
T3D78 000:798 JLINK_IsHalted()  returns FALSE (0001ms, 0454ms total)
T3D78 000:849 JLINK_IsHalted()  returns FALSE (0001ms, 0454ms total)
T3D78 000:900 JLINK_IsHalted()  returns FALSE (0001ms, 0454ms total)
T3D78 000:951 JLINK_IsHalted() -- CPU_ReadMem(2 bytes @ 0x20000000)  returns TRUE (0005ms, 0458ms total)
T3D78 000:956 JLINK_ReadReg(R15)  returns 0x20000000 (0001ms, 0454ms total)
T3D78 000:957 JLINK_ClrBPEx(BPHandle = 0x00000003)  returns 0x00 (0000ms, 0454ms total)
T3D78 000:957 JLINK_ReadReg(R0)  returns 0x00000000 (0000ms, 0454ms total)
T3D78 000:958 JLINK_WriteReg(R0, 0x08004000)  returns 0x00 (0000ms, 0454ms total)
T3D78 000:958 JLINK_WriteReg(R1, 0x00004000)  returns 0x00 (0000ms, 0454ms total)
T3D78 000:958 JLINK_WriteReg(R2, 0x000000FF)  returns 0x00 (0000ms, 0454ms total)
T3D78 000:958 JLINK_WriteReg(R3, 0x00000000)  returns 0x00 (0001ms, 0455ms total)
T3D78 000:959 JLINK_WriteReg(R4, 0x00000000)  returns 0x00 (0000ms, 0455ms total)
T3D78 000:959 JLINK_WriteReg(R5, 0x00000000)  returns 0x00 (0000ms, 0455ms total)
T3D78 000:959 JLINK_WriteReg(R6, 0x00000000)  returns 0x00 (0000ms, 0455ms total)
T3D78 000:959 JLINK_WriteReg(R7, 0x00000000)  returns 0x00 (0000ms, 0455ms total)
T3D78 000:959 JLINK_WriteReg(R8, 0x00000000)  returns 0x00 (0000ms, 0455ms total)
T3D78 000:959 JLINK_WriteReg(R9, 0x2000017C)  returns 0x00 (0000ms, 0455ms total)
T3D78 000:959 JLINK_WriteReg(R10, 0x00000000)  returns 0x00 (0000ms, 0455ms total)
T3D78 000:959 JLINK_WriteReg(R11, 0x00000000)  returns 0x00 (0000ms, 0455ms total)
T3D78 000:959 JLINK_WriteReg(R12, 0x00000000)  returns 0x00 (0000ms, 0455ms total)
T3D78 000:959 JLINK_WriteReg(R13, 0x20000800)  returns 0x00 (0000ms, 0455ms total)
T3D78 000:959 JLINK_WriteReg(R14, 0x20000001)  returns 0x00 (0000ms, 0455ms total)
T3D78 000:959 JLINK_WriteReg(R15, 0x20000020)  returns 0x00 (0000ms, 0455ms total)
T3D78 000:959 JLINK_WriteReg(XPSR, 0x01000000)  returns 0x00 (0000ms, 0455ms total)
T3D78 000:959 JLINK_WriteReg(MSP, 0x20000800)  returns 0x00 (0000ms, 0455ms total)
T3D78 000:959 JLINK_WriteReg(PSP, 0x20000800)  returns 0x00 (0000ms, 0455ms total)
T3D78 000:959 JLINK_WriteReg(CFBP, 0x00000000)  returns 0x00 (0000ms, 0455ms total)
T3D78 000:960 JLINK_SetBPEx(Addr = 0x20000000, Type = 0xFFFFFFF2)  returns 0x00000004 (0000ms, 0456ms total)
T3D78 000:960 JLINK_Go() (0003ms, 0459ms total)
T3D78 000:963 JLINK_IsHalted() -- CPU_ReadMem(2 bytes @ 0x20000000)  returns TRUE (0005ms, 0464ms total)
T3D78 000:968 JLINK_ReadReg(R15)  returns 0x20000000 (0000ms, 0459ms total)
T3D78 000:968 JLINK_ClrBPEx(BPHandle = 0x00000004)  returns 0x00 (0000ms, 0459ms total)
T3D78 000:968 JLINK_ReadReg(R0)  returns 0x00000001 (0000ms, 0459ms total)
T3D78 000:968 JLINK_WriteReg(R0, 0x08004000)  returns 0x00 (0000ms, 0459ms total)
T3D78 000:969 JLINK_WriteReg(R1, 0x00004000)  returns 0x00 (0000ms, 0459ms total)
T3D78 000:969 JLINK_WriteReg(R2, 0x000000FF)  returns 0x00 (0000ms, 0459ms total)
T3D78 000:969 JLINK_WriteReg(R3, 0x00000000)  returns 0x00 (0000ms, 0459ms total)
T3D78 000:969 JLINK_WriteReg(R4, 0x00000000)  returns 0x00 (0000ms, 0459ms total)
T3D78 000:969 JLINK_WriteReg(R5, 0x00000000)  returns 0x00 (0000ms, 0459ms total)
T3D78 000:969 JLINK_WriteReg(R6, 0x00000000)  returns 0x00 (0000ms, 0459ms total)
T3D78 000:969 JLINK_WriteReg(R7, 0x00000000)  returns 0x00 (0000ms, 0459ms total)
T3D78 000:969 JLINK_WriteReg(R8, 0x00000000)  returns 0x00 (0000ms, 0459ms total)
T3D78 000:969 JLINK_WriteReg(R9, 0x2000017C)  returns 0x00 (0000ms, 0459ms total)
T3D78 000:969 JLINK_WriteReg(R10, 0x00000000)  returns 0x00 (0000ms, 0459ms total)
T3D78 000:969 JLINK_WriteReg(R11, 0x00000000)  returns 0x00 (0000ms, 0459ms total)
T3D78 000:969 JLINK_WriteReg(R12, 0x00000000)  returns 0x00 (0000ms, 0459ms total)
T3D78 000:969 JLINK_WriteReg(R13, 0x20000800)  returns 0x00 (0000ms, 0459ms total)
T3D78 000:969 JLINK_WriteReg(R14, 0x20000001)  returns 0x00 (0000ms, 0459ms total)
T3D78 000:969 JLINK_WriteReg(R15, 0x200000BC)  returns 0x00 (0000ms, 0459ms total)
T3D78 000:969 JLINK_WriteReg(XPSR, 0x01000000)  returns 0x00 (0000ms, 0459ms total)
T3D78 000:969 JLINK_WriteReg(MSP, 0x20000800)  returns 0x00 (0001ms, 0460ms total)
T3D78 000:970 JLINK_WriteReg(PSP, 0x20000800)  returns 0x00 (0000ms, 0460ms total)
T3D78 000:970 JLINK_WriteReg(CFBP, 0x00000000)  returns 0x00 (0000ms, 0460ms total)
T3D78 000:970 JLINK_SetBPEx(Addr = 0x20000000, Type = 0xFFFFFFF2)  returns 0x00000005 (0000ms, 0460ms total)
T3D78 000:970 JLINK_Go() (0002ms, 0462ms total)
T3D78 000:972 JLINK_IsHalted()  returns FALSE (0001ms, 0463ms total)
T3D78 001:023 JLINK_IsHalted()  returns FALSE (0001ms, 0463ms total)
T3D78 001:074 JLINK_IsHalted()  returns FALSE (0002ms, 0464ms total)
T3D78 001:126 JLINK_IsHalted()  returns FALSE (0002ms, 0464ms total)
T3D78 001:178 JLINK_IsHalted()  returns FALSE (0001ms, 0463ms total)
T3D78 001:230 JLINK_IsHalted()  returns FALSE (0002ms, 0464ms total)
T3D78 001:282 JLINK_IsHalted()  returns FALSE (0000ms, 0462ms total)
T3D78 001:333 JLINK_IsHalted() -- CPU_ReadMem(2 bytes @ 0x20000000)  returns TRUE (0005ms, 0467ms total)
T3D78 001:338 JLINK_ReadReg(R15)  returns 0x20000000 (0000ms, 0462ms total)
T3D78 001:338 JLINK_ClrBPEx(BPHandle = 0x00000005)  returns 0x00 (0000ms, 0462ms total)
T3D78 001:338 JLINK_ReadReg(R0)  returns 0x00000000 (0000ms, 0462ms total)
T3D78 001:339 JLINK_WriteReg(R0, 0x08008000)  returns 0x00 (0001ms, 0463ms total)
T3D78 001:340 JLINK_WriteReg(R1, 0x00004000)  returns 0x00 (0000ms, 0463ms total)
T3D78 001:340 JLINK_WriteReg(R2, 0x000000FF)  returns 0x00 (0000ms, 0463ms total)
T3D78 001:340 JLINK_WriteReg(R3, 0x00000000)  returns 0x00 (0000ms, 0463ms total)
T3D78 001:340 JLINK_WriteReg(R4, 0x00000000)  returns 0x00 (0000ms, 0463ms total)
T3D78 001:340 JLINK_WriteReg(R5, 0x00000000)  returns 0x00 (0000ms, 0463ms total)
T3D78 001:340 JLINK_WriteReg(R6, 0x00000000)  returns 0x00 (0000ms, 0463ms total)
T3D78 001:340 JLINK_WriteReg(R7, 0x00000000)  returns 0x00 (0000ms, 0463ms total)
T3D78 001:340 JLINK_WriteReg(R8, 0x00000000)  returns 0x00 (0000ms, 0463ms total)
T3D78 001:340 JLINK_WriteReg(R9, 0x2000017C)  returns 0x00 (0000ms, 0463ms total)
T3D78 001:340 JLINK_WriteReg(R10, 0x00000000)  returns 0x00 (0000ms, 0463ms total)
T3D78 001:340 JLINK_WriteReg(R11, 0x00000000)  returns 0x00 (0000ms, 0463ms total)
T3D78 001:340 JLINK_WriteReg(R12, 0x00000000)  returns 0x00 (0000ms, 0463ms total)
T3D78 001:340 JLINK_WriteReg(R13, 0x20000800)  returns 0x00 (0001ms, 0464ms total)
T3D78 001:341 JLINK_WriteReg(R14, 0x20000001)  returns 0x00 (0000ms, 0464ms total)
T3D78 001:341 JLINK_WriteReg(R15, 0x20000020)  returns 0x00 (0000ms, 0464ms total)
T3D78 001:341 JLINK_WriteReg(XPSR, 0x01000000)  returns 0x00 (0000ms, 0464ms total)
T3D78 001:341 JLINK_WriteReg(MSP, 0x20000800)  returns 0x00 (0000ms, 0464ms total)
T3D78 001:341 JLINK_WriteReg(PSP, 0x20000800)  returns 0x00 (0000ms, 0464ms total)
T3D78 001:341 JLINK_WriteReg(CFBP, 0x00000000)  returns 0x00 (0000ms, 0464ms total)
T3D78 001:341 JLINK_SetBPEx(Addr = 0x20000000, Type = 0xFFFFFFF2)  returns 0x00000006 (0000ms, 0464ms total)
T3D78 001:341 JLINK_Go() (0003ms, 0467ms total)
T3D78 001:344 JLINK_IsHalted() -- CPU_ReadMem(2 bytes @ 0x20000000)  returns TRUE (0006ms, 0473ms total)
T3D78 001:350 JLINK_ReadReg(R15)  returns 0x20000000 (0000ms, 0467ms total)
T3D78 001:350 JLINK_ClrBPEx(BPHandle = 0x00000006)  returns 0x00 (0000ms, 0467ms total)
T3D78 001:350 JLINK_ReadReg(R0)  returns 0x00000001 (0000ms, 0467ms total)
T3D78 001:350 JLINK_WriteReg(R0, 0x08008000)  returns 0x00 (0000ms, 0467ms total)
T3D78 001:350 JLINK_WriteReg(R1, 0x00004000)  returns 0x00 (0000ms, 0467ms total)
T3D78 001:350 JLINK_WriteReg(R2, 0x000000FF)  returns 0x00 (0000ms, 0467ms total)
T3D78 001:350 JLINK_WriteReg(R3, 0x00000000)  returns 0x00 (0000ms, 0467ms total)
T3D78 001:350 JLINK_WriteReg(R4, 0x00000000)  returns 0x00 (0000ms, 0467ms total)
T3D78 001:350 JLINK_WriteReg(R5, 0x00000000)  returns 0x00 (0000ms, 0467ms total)
T3D78 001:350 JLINK_WriteReg(R6, 0x00000000)  returns 0x00 (0000ms, 0467ms total)
T3D78 001:350 JLINK_WriteReg(R7, 0x00000000)  returns 0x00 (0000ms, 0467ms total)
T3D78 001:350 JLINK_WriteReg(R8, 0x00000000)  returns 0x00 (0000ms, 0467ms total)
T3D78 001:350 JLINK_WriteReg(R9, 0x2000017C)  returns 0x00 (0000ms, 0467ms total)
T3D78 001:350 JLINK_WriteReg(R10, 0x00000000)  returns 0x00 (0000ms, 0467ms total)
T3D78 001:350 JLINK_WriteReg(R11, 0x00000000)  returns 0x00 (0000ms, 0467ms total)
T3D78 001:350 JLINK_WriteReg(R12, 0x00000000)  returns 0x00 (0000ms, 0467ms total)
T3D78 001:350 JLINK_WriteReg(R13, 0x20000800)  returns 0x00 (0000ms, 0467ms total)
T3D78 001:350 JLINK_WriteReg(R14, 0x20000001)  returns 0x00 (0000ms, 0467ms total)
T3D78 001:350 JLINK_WriteReg(R15, 0x200000BC)  returns 0x00 (0001ms, 0468ms total)
T3D78 001:351 JLINK_WriteReg(XPSR, 0x01000000)  returns 0x00 (0000ms, 0468ms total)
T3D78 001:351 JLINK_WriteReg(MSP, 0x20000800)  returns 0x00 (0000ms, 0468ms total)
T3D78 001:351 JLINK_WriteReg(PSP, 0x20000800)  returns 0x00 (0000ms, 0468ms total)
T3D78 001:351 JLINK_WriteReg(CFBP, 0x00000000)  returns 0x00 (0000ms, 0468ms total)
T3D78 001:351 JLINK_SetBPEx(Addr = 0x20000000, Type = 0xFFFFFFF2)  returns 0x00000007 (0000ms, 0468ms total)
T3D78 001:351 JLINK_Go() (0003ms, 0471ms total)
T3D78 001:354 JLINK_IsHalted()  returns FALSE (0000ms, 0471ms total)
T3D78 001:404 JLINK_IsHalted()  returns FALSE (0001ms, 0472ms total)
T3D78 001:455 JLINK_IsHalted()  returns FALSE (0001ms, 0472ms total)
T3D78 001:506 JLINK_IsHalted()  returns FALSE (0001ms, 0472ms total)
T3D78 001:557 JLINK_IsHalted()  returns FALSE (0001ms, 0472ms total)
T3D78 001:608 JLINK_IsHalted()  returns FALSE (0001ms, 0472ms total)
T3D78 001:659 JLINK_IsHalted()  returns FALSE (0001ms, 0472ms total)
T3D78 001:710 JLINK_IsHalted() -- CPU_ReadMem(2 bytes @ 0x20000000)  returns TRUE (0005ms, 0476ms total)
T3D78 001:715 JLINK_ReadReg(R15)  returns 0x20000000 (0000ms, 0471ms total)
T3D78 001:715 JLINK_ClrBPEx(BPHandle = 0x00000007)  returns 0x00 (0000ms, 0471ms total)
T3D78 001:715 JLINK_ReadReg(R0)  returns 0x00000000 (0001ms, 0472ms total)
T3D78 001:716 JLINK_WriteReg(R0, 0x00000001)  returns 0x00 (0000ms, 0472ms total)
T3D78 001:716 JLINK_WriteReg(R1, 0x00004000)  returns 0x00 (0000ms, 0472ms total)
T3D78 001:716 JLINK_WriteReg(R2, 0x000000FF)  returns 0x00 (0000ms, 0472ms total)
T3D78 001:716 JLINK_WriteReg(R3, 0x00000000)  returns 0x00 (0000ms, 0472ms total)
T3D78 001:716 JLINK_WriteReg(R4, 0x00000000)  returns 0x00 (0000ms, 0472ms total)
T3D78 001:716 JLINK_WriteReg(R5, 0x00000000)  returns 0x00 (0000ms, 0472ms total)
T3D78 001:716 JLINK_WriteReg(R6, 0x00000000)  returns 0x00 (0000ms, 0472ms total)
T3D78 001:716 JLINK_WriteReg(R7, 0x00000000)  returns 0x00 (0000ms, 0472ms total)
T3D78 001:716 JLINK_WriteReg(R8, 0x00000000)  returns 0x00 (0001ms, 0473ms total)
T3D78 001:717 JLINK_WriteReg(R9, 0x2000017C)  returns 0x00 (0000ms, 0473ms total)
T3D78 001:717 JLINK_WriteReg(R10, 0x00000000)  returns 0x00 (0000ms, 0473ms total)
T3D78 001:717 JLINK_WriteReg(R11, 0x00000000)  returns 0x00 (0000ms, 0473ms total)
T3D78 001:717 JLINK_WriteReg(R12, 0x00000000)  returns 0x00 (0000ms, 0473ms total)
T3D78 001:717 JLINK_WriteReg(R13, 0x20000800)  returns 0x00 (0000ms, 0473ms total)
T3D78 001:717 JLINK_WriteReg(R14, 0x20000001)  returns 0x00 (0000ms, 0473ms total)
T3D78 001:717 JLINK_WriteReg(R15, 0x20000082)  returns 0x00 (0000ms, 0473ms total)
T3D78 001:717 JLINK_WriteReg(XPSR, 0x01000000)  returns 0x00 (0000ms, 0473ms total)
T3D78 001:717 JLINK_WriteReg(MSP, 0x20000800)  returns 0x00 (0000ms, 0473ms total)
T3D78 001:717 JLINK_WriteReg(PSP, 0x20000800)  returns 0x00 (0000ms, 0473ms total)
T3D78 001:717 JLINK_WriteReg(CFBP, 0x00000000)  returns 0x00 (0001ms, 0474ms total)
T3D78 001:718 JLINK_SetBPEx(Addr = 0x20000000, Type = 0xFFFFFFF2)  returns 0x00000008 (0000ms, 0474ms total)
T3D78 001:718 JLINK_Go() (0002ms, 0476ms total)
T3D78 001:720 JLINK_IsHalted() -- CPU_ReadMem(2 bytes @ 0x20000000)  returns TRUE (0006ms, 0482ms total)
T3D78 001:726 JLINK_ReadReg(R15)  returns 0x20000000 (0001ms, 0477ms total)
T3D78 001:727 JLINK_ClrBPEx(BPHandle = 0x00000008)  returns 0x00 (0000ms, 0477ms total)
T3D78 001:727 JLINK_ReadReg(R0)  returns 0x00000000 (0000ms, 0477ms total)
T3D78 001:787 JLINK_WriteMem(0x20000000, 0x0180 Bytes, ...) -- Data:  00 BE 0A E0 0D 78 2D 06 68 40 08 24 40 00 00 D3 ... -- CPU_WriteMem(384 bytes @ 0x20000000)  returns 0x180 (0006ms, 0483ms total)
T3D78 001:793 JLINK_WriteReg(R0, 0x08000000)  returns 0x00 (0000ms, 0483ms total)
T3D78 001:793 JLINK_WriteReg(R1, 0x007A1200)  returns 0x00 (0000ms, 0483ms total)
T3D78 001:793 JLINK_WriteReg(R2, 0x00000002)  returns 0x00 (0000ms, 0483ms total)
T3D78 001:793 JLINK_WriteReg(R3, 0x00000000)  returns 0x00 (0000ms, 0483ms total)
T3D78 001:793 JLINK_WriteReg(R4, 0x00000000)  returns 0x00 (0000ms, 0483ms total)
T3D78 001:793 JLINK_WriteReg(R5, 0x00000000)  returns 0x00 (0000ms, 0483ms total)
T3D78 001:793 JLINK_WriteReg(R6, 0x00000000)  returns 0x00 (0000ms, 0483ms total)
T3D78 001:793 JLINK_WriteReg(R7, 0x00000000)  returns 0x00 (0000ms, 0483ms total)
T3D78 001:793 JLINK_WriteReg(R8, 0x00000000)  returns 0x00 (0000ms, 0483ms total)
T3D78 001:793 JLINK_WriteReg(R9, 0x2000017C)  returns 0x00 (0000ms, 0483ms total)
T3D78 001:793 JLINK_WriteReg(R10, 0x00000000)  returns 0x00 (0000ms, 0483ms total)
T3D78 001:793 JLINK_WriteReg(R11, 0x00000000)  returns 0x00 (0000ms, 0483ms total)
T3D78 001:793 JLINK_WriteReg(R12, 0x00000000)  returns 0x00 (0000ms, 0483ms total)
T3D78 001:793 JLINK_WriteReg(R13, 0x20000800)  returns 0x00 (0000ms, 0483ms total)
T3D78 001:793 JLINK_WriteReg(R14, 0x20000001)  returns 0x00 (0000ms, 0483ms total)
T3D78 001:793 JLINK_WriteReg(R15, 0x20000054)  returns 0x00 (0000ms, 0483ms total)
T3D78 001:793 JLINK_WriteReg(XPSR, 0x01000000)  returns 0x00 (0000ms, 0483ms total)
T3D78 001:793 JLINK_WriteReg(MSP, 0x20000800)  returns 0x00 (0000ms, 0483ms total)
T3D78 001:793 JLINK_WriteReg(PSP, 0x20000800)  returns 0x00 (0000ms, 0483ms total)
T3D78 001:793 JLINK_WriteReg(CFBP, 0x00000000)  returns 0x00 (0001ms, 0484ms total)
T3D78 001:794 JLINK_SetBPEx(Addr = 0x20000000, Type = 0xFFFFFFF2) -- CPU_ReadMem(2 bytes @ 0x20000000)  returns 0x00000009 (0000ms, 0484ms total)
T3D78 001:795 JLINK_Go() -- CPU_WriteMem(2 bytes @ 0x20000000) (0003ms, 0488ms total)
T3D78 001:798 JLINK_IsHalted() -- CPU_ReadMem(2 bytes @ 0x20000000)  returns TRUE (0005ms, 0493ms total)
T3D78 001:803 JLINK_ReadReg(R15)  returns 0x20000000 (0000ms, 0488ms total)
T3D78 001:803 JLINK_ClrBPEx(BPHandle = 0x00000009)  returns 0x00 (0000ms, 0488ms total)
T3D78 001:803 JLINK_ReadReg(R0)  returns 0x00000000 (0000ms, 0488ms total)
T3D78 001:804 JLINK_WriteMem(0x20000180, 0x0400 Bytes, ...) -- Data:  48 45 00 20 9D 01 00 08 D1 05 00 08 5D 02 00 08 ... -- CPU_WriteMem(1024 bytes @ 0x20000180)  returns 0x400 (0013ms, 0501ms total)
T3D78 001:817 JLINK_WriteReg(R0, 0x08000000)  returns 0x00 (0000ms, 0501ms total)
T3D78 001:817 JLINK_WriteReg(R1, 0x00000400)  returns 0x00 (0000ms, 0501ms total)
T3D78 001:817 JLINK_WriteReg(R2, 0x20000180)  returns 0x00 (0000ms, 0501ms total)
T3D78 001:817 JLINK_WriteReg(R3, 0x00000000)  returns 0x00 (0000ms, 0501ms total)
T3D78 001:817 JLINK_WriteReg(R4, 0x00000000)  returns 0x00 (0000ms, 0501ms total)
T3D78 001:817 JLINK_WriteReg(R5, 0x00000000)  returns 0x00 (0000ms, 0501ms total)
T3D78 001:817 JLINK_WriteReg(R6, 0x00000000)  returns 0x00 (0000ms, 0501ms total)
T3D78 001:817 JLINK_WriteReg(R7, 0x00000000)  returns 0x00 (0000ms, 0501ms total)
T3D78 001:817 JLINK_WriteReg(R8, 0x00000000)  returns 0x00 (0000ms, 0501ms total)
T3D78 001:817 JLINK_WriteReg(R9, 0x2000017C)  returns 0x00 (0000ms, 0501ms total)
T3D78 001:817 JLINK_WriteReg(R10, 0x00000000)  returns 0x00 (0000ms, 0501ms total)
T3D78 001:817 JLINK_WriteReg(R11, 0x00000000)  returns 0x00 (0000ms, 0501ms total)
T3D78 001:817 JLINK_WriteReg(R12, 0x00000000)  returns 0x00 (0000ms, 0501ms total)
T3D78 001:817 JLINK_WriteReg(R13, 0x20000800)  returns 0x00 (0000ms, 0501ms total)
T3D78 001:817 JLINK_WriteReg(R14, 0x20000001)  returns 0x00 (0000ms, 0501ms total)
T3D78 001:817 JLINK_WriteReg(R15, 0x20000108)  returns 0x00 (0000ms, 0501ms total)
T3D78 001:817 JLINK_WriteReg(XPSR, 0x01000000)  returns 0x00 (0000ms, 0501ms total)
T3D78 001:817 JLINK_WriteReg(MSP, 0x20000800)  returns 0x00 (0000ms, 0501ms total)
T3D78 001:817 JLINK_WriteReg(PSP, 0x20000800)  returns 0x00 (0000ms, 0501ms total)
T3D78 001:817 JLINK_WriteReg(CFBP, 0x00000000)  returns 0x00 (0000ms, 0501ms total)
T3D78 001:817 JLINK_SetBPEx(Addr = 0x20000000, Type = 0xFFFFFFF2)  returns 0x0000000A (0000ms, 0501ms total)
T3D78 001:817 JLINK_Go() (0003ms, 0504ms total)
T3D78 001:820 JLINK_IsHalted()  returns FALSE (0001ms, 0505ms total)
T3D78 001:871 JLINK_IsHalted() -- CPU_ReadMem(2 bytes @ 0x20000000)  returns TRUE (0008ms, 0512ms total)
T3D78 001:879 JLINK_ReadReg(R15)  returns 0x20000000 (0001ms, 0505ms total)
T3D78 001:880 JLINK_ClrBPEx(BPHandle = 0x0000000A)  returns 0x00 (0000ms, 0505ms total)
T3D78 001:880 JLINK_ReadReg(R0)  returns 0x00000000 (0000ms, 0505ms total)
T3D78 001:881 JLINK_WriteMem(0x20000180, 0x0400 Bytes, ...) -- Data:  14 F8 01 0B 01 27 78 28 03 D0 58 28 01 D0 45 B1 ... -- CPU_WriteMem(1024 bytes @ 0x20000180)  returns 0x400 (0013ms, 0518ms total)
T3D78 001:894 JLINK_WriteReg(R0, 0x08000400)  returns 0x00 (0000ms, 0518ms total)
T3D78 001:894 JLINK_WriteReg(R1, 0x00000400)  returns 0x00 (0000ms, 0518ms total)
T3D78 001:894 JLINK_WriteReg(R2, 0x20000180)  returns 0x00 (0000ms, 0518ms total)
T3D78 001:894 JLINK_WriteReg(R3, 0x00000000)  returns 0x00 (0000ms, 0518ms total)
T3D78 001:894 JLINK_WriteReg(R4, 0x00000000)  returns 0x00 (0000ms, 0518ms total)
T3D78 001:894 JLINK_WriteReg(R5, 0x00000000)  returns 0x00 (0000ms, 0518ms total)
T3D78 001:894 JLINK_WriteReg(R6, 0x00000000)  returns 0x00 (0000ms, 0518ms total)
T3D78 001:894 JLINK_WriteReg(R7, 0x00000000)  returns 0x00 (0000ms, 0518ms total)
T3D78 001:894 JLINK_WriteReg(R8, 0x00000000)  returns 0x00 (0000ms, 0518ms total)
T3D78 001:894 JLINK_WriteReg(R9, 0x2000017C)  returns 0x00 (0000ms, 0518ms total)
T3D78 001:894 JLINK_WriteReg(R10, 0x00000000)  returns 0x00 (0000ms, 0518ms total)
T3D78 001:894 JLINK_WriteReg(R11, 0x00000000)  returns 0x00 (0000ms, 0518ms total)
T3D78 001:894 JLINK_WriteReg(R12, 0x00000000)  returns 0x00 (0000ms, 0518ms total)
T3D78 001:894 JLINK_WriteReg(R13, 0x20000800)  returns 0x00 (0000ms, 0518ms total)
T3D78 001:894 JLINK_WriteReg(R14, 0x20000001)  returns 0x00 (0000ms, 0518ms total)
T3D78 001:894 JLINK_WriteReg(R15, 0x20000108)  returns 0x00 (0000ms, 0518ms total)
T3D78 001:894 JLINK_WriteReg(XPSR, 0x01000000)  returns 0x00 (0000ms, 0518ms total)
T3D78 001:894 JLINK_WriteReg(MSP, 0x20000800)  returns 0x00 (0000ms, 0518ms total)
T3D78 001:894 JLINK_WriteReg(PSP, 0x20000800)  returns 0x00 (0000ms, 0518ms total)
T3D78 001:894 JLINK_WriteReg(CFBP, 0x00000000)  returns 0x00 (0000ms, 0518ms total)
T3D78 001:894 JLINK_SetBPEx(Addr = 0x20000000, Type = 0xFFFFFFF2)  returns 0x0000000B (0000ms, 0518ms total)
T3D78 001:894 JLINK_Go() (0003ms, 0521ms total)
T3D78 001:897 JLINK_IsHalted()  returns FALSE (0001ms, 0522ms total)
T3D78 001:948 JLINK_IsHalted() -- CPU_ReadMem(2 bytes @ 0x20000000)  returns TRUE (0006ms, 0527ms total)
T3D78 001:954 JLINK_ReadReg(R15)  returns 0x20000000 (0000ms, 0521ms total)
T3D78 001:954 JLINK_ClrBPEx(BPHandle = 0x0000000B)  returns 0x00 (0000ms, 0521ms total)
T3D78 001:954 JLINK_ReadReg(R0)  returns 0x00000000 (0000ms, 0521ms total)
T3D78 001:955 JLINK_WriteMem(0x20000180, 0x0400 Bytes, ...) -- Data:  0F CE 05 AE 0F C6 E6 E7 16 AE 0F CE 06 AE 0F C6 ... -- CPU_WriteMem(1024 bytes @ 0x20000180)  returns 0x400 (0013ms, 0534ms total)
T3D78 001:968 JLINK_WriteReg(R0, 0x08000800)  returns 0x00 (0000ms, 0534ms total)
T3D78 001:968 JLINK_WriteReg(R1, 0x00000400)  returns 0x00 (0000ms, 0534ms total)
T3D78 001:968 JLINK_WriteReg(R2, 0x20000180)  returns 0x00 (0000ms, 0534ms total)
T3D78 001:968 JLINK_WriteReg(R3, 0x00000000)  returns 0x00 (0000ms, 0534ms total)
T3D78 001:968 JLINK_WriteReg(R4, 0x00000000)  returns 0x00 (0000ms, 0534ms total)
T3D78 001:968 JLINK_WriteReg(R5, 0x00000000)  returns 0x00 (0000ms, 0534ms total)
T3D78 001:968 JLINK_WriteReg(R6, 0x00000000)  returns 0x00 (0000ms, 0534ms total)
T3D78 001:968 JLINK_WriteReg(R7, 0x00000000)  returns 0x00 (0000ms, 0534ms total)
T3D78 001:968 JLINK_WriteReg(R8, 0x00000000)  returns 0x00 (0000ms, 0534ms total)
T3D78 001:968 JLINK_WriteReg(R9, 0x2000017C)  returns 0x00 (0001ms, 0535ms total)
T3D78 001:969 JLINK_WriteReg(R10, 0x00000000)  returns 0x00 (0000ms, 0535ms total)
T3D78 001:969 JLINK_WriteReg(R11, 0x00000000)  returns 0x00 (0000ms, 0535ms total)
T3D78 001:969 JLINK_WriteReg(R12, 0x00000000)  returns 0x00 (0000ms, 0535ms total)
T3D78 001:969 JLINK_WriteReg(R13, 0x20000800)  returns 0x00 (0000ms, 0535ms total)
T3D78 001:969 JLINK_WriteReg(R14, 0x20000001)  returns 0x00 (0000ms, 0535ms total)
T3D78 001:969 JLINK_WriteReg(R15, 0x20000108)  returns 0x00 (0000ms, 0535ms total)
T3D78 001:969 JLINK_WriteReg(XPSR, 0x01000000)  returns 0x00 (0000ms, 0535ms total)
T3D78 001:969 JLINK_WriteReg(MSP, 0x20000800)  returns 0x00 (0000ms, 0535ms total)
T3D78 001:969 JLINK_WriteReg(PSP, 0x20000800)  returns 0x00 (0000ms, 0535ms total)
T3D78 001:969 JLINK_WriteReg(CFBP, 0x00000000)  returns 0x00 (0000ms, 0535ms total)
T3D78 001:969 JLINK_SetBPEx(Addr = 0x20000000, Type = 0xFFFFFFF2)  returns 0x0000000C (0000ms, 0535ms total)
T3D78 001:969 JLINK_Go() (0003ms, 0538ms total)
T3D78 001:972 JLINK_IsHalted()  returns FALSE (0001ms, 0539ms total)
T3D78 002:023 JLINK_IsHalted() -- CPU_ReadMem(2 bytes @ 0x20000000)  returns TRUE (0005ms, 0543ms total)
T3D78 002:028 JLINK_ReadReg(R15)  returns 0x20000000 (0001ms, 0539ms total)
T3D78 002:029 JLINK_ClrBPEx(BPHandle = 0x0000000C)  returns 0x00 (0000ms, 0539ms total)
T3D78 002:029 JLINK_ReadReg(R0)  returns 0x00000000 (0000ms, 0539ms total)
T3D78 002:030 JLINK_WriteMem(0x20000180, 0x0400 Bytes, ...) -- Data:  C8 01 00 20 04 49 08 68 30 F8 08 2D 83 88 5A 40 ... -- CPU_WriteMem(1024 bytes @ 0x20000180)  returns 0x400 (0013ms, 0552ms total)
T3D78 002:043 JLINK_WriteReg(R0, 0x08000C00)  returns 0x00 (0000ms, 0552ms total)
T3D78 002:043 JLINK_WriteReg(R1, 0x00000400)  returns 0x00 (0000ms, 0552ms total)
T3D78 002:043 JLINK_WriteReg(R2, 0x20000180)  returns 0x00 (0000ms, 0552ms total)
T3D78 002:043 JLINK_WriteReg(R3, 0x00000000)  returns 0x00 (0000ms, 0552ms total)
T3D78 002:043 JLINK_WriteReg(R4, 0x00000000)  returns 0x00 (0000ms, 0552ms total)
T3D78 002:043 JLINK_WriteReg(R5, 0x00000000)  returns 0x00 (0000ms, 0552ms total)
T3D78 002:043 JLINK_WriteReg(R6, 0x00000000)  returns 0x00 (0000ms, 0552ms total)
T3D78 002:043 JLINK_WriteReg(R7, 0x00000000)  returns 0x00 (0000ms, 0552ms total)
T3D78 002:043 JLINK_WriteReg(R8, 0x00000000)  returns 0x00 (0000ms, 0552ms total)
T3D78 002:043 JLINK_WriteReg(R9, 0x2000017C)  returns 0x00 (0000ms, 0552ms total)
T3D78 002:043 JLINK_WriteReg(R10, 0x00000000)  returns 0x00 (0000ms, 0552ms total)
T3D78 002:043 JLINK_WriteReg(R11, 0x00000000)  returns 0x00 (0000ms, 0552ms total)
T3D78 002:043 JLINK_WriteReg(R12, 0x00000000)  returns 0x00 (0000ms, 0552ms total)
T3D78 002:043 JLINK_WriteReg(R13, 0x20000800)  returns 0x00 (0000ms, 0552ms total)
T3D78 002:043 JLINK_WriteReg(R14, 0x20000001)  returns 0x00 (0000ms, 0552ms total)
T3D78 002:043 JLINK_WriteReg(R15, 0x20000108)  returns 0x00 (0000ms, 0552ms total)
T3D78 002:043 JLINK_WriteReg(XPSR, 0x01000000)  returns 0x00 (0000ms, 0552ms total)
T3D78 002:043 JLINK_WriteReg(MSP, 0x20000800)  returns 0x00 (0000ms, 0552ms total)
T3D78 002:043 JLINK_WriteReg(PSP, 0x20000800)  returns 0x00 (0000ms, 0552ms total)
T3D78 002:043 JLINK_WriteReg(CFBP, 0x00000000)  returns 0x00 (0000ms, 0552ms total)
T3D78 002:043 JLINK_SetBPEx(Addr = 0x20000000, Type = 0xFFFFFFF2)  returns 0x0000000D (0000ms, 0552ms total)
T3D78 002:043 JLINK_Go() (0004ms, 0556ms total)
T3D78 002:047 JLINK_IsHalted()  returns FALSE (0001ms, 0557ms total)
T3D78 002:098 JLINK_IsHalted() -- CPU_ReadMem(2 bytes @ 0x20000000)  returns TRUE (0005ms, 0561ms total)
T3D78 002:103 JLINK_ReadReg(R15)  returns 0x20000000 (0000ms, 0556ms total)
T3D78 002:103 JLINK_ClrBPEx(BPHandle = 0x0000000D)  returns 0x00 (0000ms, 0556ms total)
T3D78 002:103 JLINK_ReadReg(R0)  returns 0x00000000 (0000ms, 0556ms total)
T3D78 002:104 JLINK_WriteMem(0x20000180, 0x0400 Bytes, ...) -- Data:  00 B1 01 25 28 46 30 BD 83 89 F0 E7 03 8A EE E7 ... -- CPU_WriteMem(1024 bytes @ 0x20000180)  returns 0x400 (0013ms, 0569ms total)
T3D78 002:117 JLINK_WriteReg(R0, 0x08001000)  returns 0x00 (0001ms, 0570ms total)
T3D78 002:118 JLINK_WriteReg(R1, 0x00000400)  returns 0x00 (0000ms, 0570ms total)
T3D78 002:118 JLINK_WriteReg(R2, 0x20000180)  returns 0x00 (0000ms, 0570ms total)
T3D78 002:118 JLINK_WriteReg(R3, 0x00000000)  returns 0x00 (0000ms, 0570ms total)
T3D78 002:118 JLINK_WriteReg(R4, 0x00000000)  returns 0x00 (0000ms, 0570ms total)
T3D78 002:118 JLINK_WriteReg(R5, 0x00000000)  returns 0x00 (0000ms, 0570ms total)
T3D78 002:118 JLINK_WriteReg(R6, 0x00000000)  returns 0x00 (0000ms, 0570ms total)
T3D78 002:118 JLINK_WriteReg(R7, 0x00000000)  returns 0x00 (0000ms, 0570ms total)
T3D78 002:118 JLINK_WriteReg(R8, 0x00000000)  returns 0x00 (0000ms, 0570ms total)
T3D78 002:118 JLINK_WriteReg(R9, 0x2000017C)  returns 0x00 (0000ms, 0570ms total)
T3D78 002:118 JLINK_WriteReg(R10, 0x00000000)  returns 0x00 (0000ms, 0570ms total)
T3D78 002:118 JLINK_WriteReg(R11, 0x00000000)  returns 0x00 (0000ms, 0570ms total)
T3D78 002:118 JLINK_WriteReg(R12, 0x00000000)  returns 0x00 (0000ms, 0570ms total)
T3D78 002:118 JLINK_WriteReg(R13, 0x20000800)  returns 0x00 (0000ms, 0570ms total)
T3D78 002:118 JLINK_WriteReg(R14, 0x20000001)  returns 0x00 (0000ms, 0570ms total)
T3D78 002:118 JLINK_WriteReg(R15, 0x20000108)  returns 0x00 (0000ms, 0570ms total)
T3D78 002:118 JLINK_WriteReg(XPSR, 0x01000000)  returns 0x00 (0000ms, 0570ms total)
T3D78 002:118 JLINK_WriteReg(MSP, 0x20000800)  returns 0x00 (0000ms, 0570ms total)
T3D78 002:118 JLINK_WriteReg(PSP, 0x20000800)  returns 0x00 (0000ms, 0570ms total)
T3D78 002:118 JLINK_WriteReg(CFBP, 0x00000000)  returns 0x00 (0000ms, 0570ms total)
T3D78 002:118 JLINK_SetBPEx(Addr = 0x20000000, Type = 0xFFFFFFF2)  returns 0x0000000E (0000ms, 0570ms total)
T3D78 002:118 JLINK_Go() (0003ms, 0573ms total)
T3D78 002:121 JLINK_IsHalted()  returns FALSE (0001ms, 0574ms total)
T3D78 002:172 JLINK_IsHalted() -- CPU_ReadMem(2 bytes @ 0x20000000)  returns TRUE (0010ms, 0583ms total)
T3D78 002:182 JLINK_ReadReg(R15)  returns 0x20000000 (0000ms, 0573ms total)
T3D78 002:182 JLINK_ClrBPEx(BPHandle = 0x0000000E)  returns 0x00 (0000ms, 0573ms total)
T3D78 002:182 JLINK_ReadReg(R0)  returns 0x00000000 (0000ms, 0573ms total)
T3D78 002:183 JLINK_WriteMem(0x20000180, 0x0400 Bytes, ...) -- Data:  01 99 C1 60 73 E0 05 98 C0 F3 40 10 48 B1 00 20 ... -- CPU_WriteMem(1024 bytes @ 0x20000180)  returns 0x400 (0014ms, 0587ms total)
T3D78 002:197 JLINK_WriteReg(R0, 0x08001400)  returns 0x00 (0000ms, 0587ms total)
T3D78 002:197 JLINK_WriteReg(R1, 0x00000400)  returns 0x00 (0000ms, 0587ms total)
T3D78 002:197 JLINK_WriteReg(R2, 0x20000180)  returns 0x00 (0000ms, 0587ms total)
T3D78 002:197 JLINK_WriteReg(R3, 0x00000000)  returns 0x00 (0000ms, 0587ms total)
T3D78 002:197 JLINK_WriteReg(R4, 0x00000000)  returns 0x00 (0000ms, 0587ms total)
T3D78 002:197 JLINK_WriteReg(R5, 0x00000000)  returns 0x00 (0000ms, 0587ms total)
T3D78 002:197 JLINK_WriteReg(R6, 0x00000000)  returns 0x00 (0000ms, 0587ms total)
T3D78 002:197 JLINK_WriteReg(R7, 0x00000000)  returns 0x00 (0000ms, 0587ms total)
T3D78 002:197 JLINK_WriteReg(R8, 0x00000000)  returns 0x00 (0000ms, 0587ms total)
T3D78 002:197 JLINK_WriteReg(R9, 0x2000017C)  returns 0x00 (0000ms, 0587ms total)
T3D78 002:197 JLINK_WriteReg(R10, 0x00000000)  returns 0x00 (0000ms, 0587ms total)
T3D78 002:197 JLINK_WriteReg(R11, 0x00000000)  returns 0x00 (0000ms, 0587ms total)
T3D78 002:197 JLINK_WriteReg(R12, 0x00000000)  returns 0x00 (0000ms, 0587ms total)
T3D78 002:197 JLINK_WriteReg(R13, 0x20000800)  returns 0x00 (0000ms, 0587ms total)
T3D78 002:197 JLINK_WriteReg(R14, 0x20000001)  returns 0x00 (0000ms, 0587ms total)
T3D78 002:197 JLINK_WriteReg(R15, 0x20000108)  returns 0x00 (0000ms, 0587ms total)
T3D78 002:197 JLINK_WriteReg(XPSR, 0x01000000)  returns 0x00 (0000ms, 0587ms total)
T3D78 002:197 JLINK_WriteReg(MSP, 0x20000800)  returns 0x00 (0000ms, 0587ms total)
T3D78 002:197 JLINK_WriteReg(PSP, 0x20000800)  returns 0x00 (0001ms, 0588ms total)
T3D78 002:198 JLINK_WriteReg(CFBP, 0x00000000)  returns 0x00 (0000ms, 0588ms total)
T3D78 002:198 JLINK_SetBPEx(Addr = 0x20000000, Type = 0xFFFFFFF2)  returns 0x0000000F (0000ms, 0588ms total)
T3D78 002:198 JLINK_Go() (0003ms, 0591ms total)
T3D78 002:201 JLINK_IsHalted()  returns FALSE (0000ms, 0591ms total)
T3D78 002:251 JLINK_IsHalted() -- CPU_ReadMem(2 bytes @ 0x20000000)  returns TRUE (0006ms, 0597ms total)
T3D78 002:257 JLINK_ReadReg(R15)  returns 0x20000000 (0000ms, 0591ms total)
T3D78 002:257 JLINK_ClrBPEx(BPHandle = 0x0000000F)  returns 0x00 (0000ms, 0591ms total)
T3D78 002:257 JLINK_ReadReg(R0)  returns 0x00000000 (0000ms, 0591ms total)
T3D78 002:259 JLINK_WriteMem(0x20000180, 0x0400 Bytes, ...) -- Data:  00 98 B0 60 05 F1 90 00 50 F8 24 00 C0 68 00 90 ... -- CPU_WriteMem(1024 bytes @ 0x20000180)  returns 0x400 (0013ms, 0604ms total)
T3D78 002:272 JLINK_WriteReg(R0, 0x08001800)  returns 0x00 (0000ms, 0604ms total)
T3D78 002:272 JLINK_WriteReg(R1, 0x00000400)  returns 0x00 (0000ms, 0604ms total)
T3D78 002:272 JLINK_WriteReg(R2, 0x20000180)  returns 0x00 (0000ms, 0604ms total)
T3D78 002:272 JLINK_WriteReg(R3, 0x00000000)  returns 0x00 (0000ms, 0604ms total)
T3D78 002:272 JLINK_WriteReg(R4, 0x00000000)  returns 0x00 (0000ms, 0604ms total)
T3D78 002:272 JLINK_WriteReg(R5, 0x00000000)  returns 0x00 (0000ms, 0604ms total)
T3D78 002:272 JLINK_WriteReg(R6, 0x00000000)  returns 0x00 (0000ms, 0604ms total)
T3D78 002:272 JLINK_WriteReg(R7, 0x00000000)  returns 0x00 (0000ms, 0604ms total)
T3D78 002:272 JLINK_WriteReg(R8, 0x00000000)  returns 0x00 (0000ms, 0604ms total)
T3D78 002:272 JLINK_WriteReg(R9, 0x2000017C)  returns 0x00 (0001ms, 0605ms total)
T3D78 002:273 JLINK_WriteReg(R10, 0x00000000)  returns 0x00 (0000ms, 0605ms total)
T3D78 002:273 JLINK_WriteReg(R11, 0x00000000)  returns 0x00 (0000ms, 0605ms total)
T3D78 002:273 JLINK_WriteReg(R12, 0x00000000)  returns 0x00 (0000ms, 0605ms total)
T3D78 002:273 JLINK_WriteReg(R13, 0x20000800)  returns 0x00 (0000ms, 0605ms total)
T3D78 002:273 JLINK_WriteReg(R14, 0x20000001)  returns 0x00 (0000ms, 0605ms total)
T3D78 002:273 JLINK_WriteReg(R15, 0x20000108)  returns 0x00 (0000ms, 0605ms total)
T3D78 002:273 JLINK_WriteReg(XPSR, 0x01000000)  returns 0x00 (0000ms, 0605ms total)
T3D78 002:273 JLINK_WriteReg(MSP, 0x20000800)  returns 0x00 (0000ms, 0605ms total)
T3D78 002:273 JLINK_WriteReg(PSP, 0x20000800)  returns 0x00 (0000ms, 0605ms total)
T3D78 002:273 JLINK_WriteReg(CFBP, 0x00000000)  returns 0x00 (0000ms, 0605ms total)
T3D78 002:273 JLINK_SetBPEx(Addr = 0x20000000, Type = 0xFFFFFFF2)  returns 0x00000010 (0000ms, 0605ms total)
T3D78 002:273 JLINK_Go() (0003ms, 0608ms total)
T3D78 002:276 JLINK_IsHalted()  returns FALSE (0001ms, 0609ms total)
T3D78 002:327 JLINK_IsHalted() -- CPU_ReadMem(2 bytes @ 0x20000000)  returns TRUE (0005ms, 0613ms total)
T3D78 002:332 JLINK_ReadReg(R15)  returns 0x20000000 (0000ms, 0608ms total)
T3D78 002:332 JLINK_ClrBPEx(BPHandle = 0x00000010)  returns 0x00 (0000ms, 0608ms total)
T3D78 002:332 JLINK_ReadReg(R0)  returns 0x00000000 (0000ms, 0608ms total)
T3D78 002:333 JLINK_WriteMem(0x20000180, 0x0400 Bytes, ...) -- Data:  C3 01 04 F5 6B 70 00 EB 41 10 00 69 C0 1C C0 F3 ... -- CPU_WriteMem(1024 bytes @ 0x20000180)  returns 0x400 (0013ms, 0621ms total)
T3D78 002:346 JLINK_WriteReg(R0, 0x08001C00)  returns 0x00 (0000ms, 0621ms total)
T3D78 002:346 JLINK_WriteReg(R1, 0x00000400)  returns 0x00 (0000ms, 0621ms total)
T3D78 002:346 JLINK_WriteReg(R2, 0x20000180)  returns 0x00 (0000ms, 0621ms total)
T3D78 002:346 JLINK_WriteReg(R3, 0x00000000)  returns 0x00 (0000ms, 0621ms total)
T3D78 002:346 JLINK_WriteReg(R4, 0x00000000)  returns 0x00 (0000ms, 0621ms total)
T3D78 002:346 JLINK_WriteReg(R5, 0x00000000)  returns 0x00 (0000ms, 0621ms total)
T3D78 002:346 JLINK_WriteReg(R6, 0x00000000)  returns 0x00 (0000ms, 0621ms total)
T3D78 002:346 JLINK_WriteReg(R7, 0x00000000)  returns 0x00 (0000ms, 0621ms total)
T3D78 002:346 JLINK_WriteReg(R8, 0x00000000)  returns 0x00 (0000ms, 0621ms total)
T3D78 002:346 JLINK_WriteReg(R9, 0x2000017C)  returns 0x00 (0000ms, 0621ms total)
T3D78 002:346 JLINK_WriteReg(R10, 0x00000000)  returns 0x00 (0000ms, 0621ms total)
T3D78 002:346 JLINK_WriteReg(R11, 0x00000000)  returns 0x00 (0000ms, 0621ms total)
T3D78 002:346 JLINK_WriteReg(R12, 0x00000000)  returns 0x00 (0001ms, 0622ms total)
T3D78 002:347 JLINK_WriteReg(R13, 0x20000800)  returns 0x00 (0000ms, 0622ms total)
T3D78 002:347 JLINK_WriteReg(R14, 0x20000001)  returns 0x00 (0000ms, 0622ms total)
T3D78 002:347 JLINK_WriteReg(R15, 0x20000108)  returns 0x00 (0000ms, 0622ms total)
T3D78 002:347 JLINK_WriteReg(XPSR, 0x01000000)  returns 0x00 (0000ms, 0622ms total)
T3D78 002:347 JLINK_WriteReg(MSP, 0x20000800)  returns 0x00 (0000ms, 0622ms total)
T3D78 002:347 JLINK_WriteReg(PSP, 0x20000800)  returns 0x00 (0000ms, 0622ms total)
T3D78 002:347 JLINK_WriteReg(CFBP, 0x00000000)  returns 0x00 (0000ms, 0622ms total)
T3D78 002:347 JLINK_SetBPEx(Addr = 0x20000000, Type = 0xFFFFFFF2)  returns 0x00000011 (0000ms, 0622ms total)
T3D78 002:347 JLINK_Go() (0003ms, 0625ms total)
T3D78 002:350 JLINK_IsHalted()  returns FALSE (0001ms, 0626ms total)
T3D78 002:401 JLINK_IsHalted() -- CPU_ReadMem(2 bytes @ 0x20000000)  returns TRUE (0005ms, 0630ms total)
T3D78 002:406 JLINK_ReadReg(R15)  returns 0x20000000 (0001ms, 0626ms total)
T3D78 002:407 JLINK_ClrBPEx(BPHandle = 0x00000011)  returns 0x00 (0000ms, 0626ms total)
T3D78 002:407 JLINK_ReadReg(R0)  returns 0x00000000 (0000ms, 0626ms total)
T3D78 002:407 JLINK_WriteMem(0x20000180, 0x0400 Bytes, ...) -- Data:  00 28 0F DD 00 98 20 F0 00 40 00 F1 00 40 00 90 ... -- CPU_WriteMem(1024 bytes @ 0x20000180)  returns 0x400 (0013ms, 0639ms total)
T3D78 002:420 JLINK_WriteReg(R0, 0x08002000)  returns 0x00 (0000ms, 0639ms total)
T3D78 002:420 JLINK_WriteReg(R1, 0x00000400)  returns 0x00 (0000ms, 0639ms total)
T3D78 002:420 JLINK_WriteReg(R2, 0x20000180)  returns 0x00 (0000ms, 0639ms total)
T3D78 002:420 JLINK_WriteReg(R3, 0x00000000)  returns 0x00 (0000ms, 0639ms total)
T3D78 002:420 JLINK_WriteReg(R4, 0x00000000)  returns 0x00 (0000ms, 0639ms total)
T3D78 002:420 JLINK_WriteReg(R5, 0x00000000)  returns 0x00 (0000ms, 0639ms total)
T3D78 002:420 JLINK_WriteReg(R6, 0x00000000)  returns 0x00 (0000ms, 0639ms total)
T3D78 002:420 JLINK_WriteReg(R7, 0x00000000)  returns 0x00 (0000ms, 0639ms total)
T3D78 002:420 JLINK_WriteReg(R8, 0x00000000)  returns 0x00 (0000ms, 0639ms total)
T3D78 002:420 JLINK_WriteReg(R9, 0x2000017C)  returns 0x00 (0000ms, 0639ms total)
T3D78 002:420 JLINK_WriteReg(R10, 0x00000000)  returns 0x00 (0000ms, 0639ms total)
T3D78 002:420 JLINK_WriteReg(R11, 0x00000000)  returns 0x00 (0000ms, 0639ms total)
T3D78 002:420 JLINK_WriteReg(R12, 0x00000000)  returns 0x00 (0000ms, 0639ms total)
T3D78 002:420 JLINK_WriteReg(R13, 0x20000800)  returns 0x00 (0001ms, 0640ms total)
T3D78 002:421 JLINK_WriteReg(R14, 0x20000001)  returns 0x00 (0000ms, 0640ms total)
T3D78 002:421 JLINK_WriteReg(R15, 0x20000108)  returns 0x00 (0000ms, 0640ms total)
T3D78 002:421 JLINK_WriteReg(XPSR, 0x01000000)  returns 0x00 (0000ms, 0640ms total)
T3D78 002:421 JLINK_WriteReg(MSP, 0x20000800)  returns 0x00 (0000ms, 0640ms total)
T3D78 002:421 JLINK_WriteReg(PSP, 0x20000800)  returns 0x00 (0000ms, 0640ms total)
T3D78 002:421 JLINK_WriteReg(CFBP, 0x00000000)  returns 0x00 (0000ms, 0640ms total)
